#   Hz   S  RI   R   50
!
0.0 -0.939341608252365 0.0
75000000.0 -0.9388592997084085 0.02981586315504343
150000000.0 -0.9374139572850521 0.05958485193364221
225000000.0 -0.935010316073969 0.08926036654939355
300000000.0 -0.9316562197020722 0.11879635280966326
375000000.0 -0.9273625489235142 0.14814756602656182
450000000.0 -0.9221431233851205 0.1772698244857974
525000000.0 -0.916014578244595 0.20612024935306653
600000000.0 -0.9089962177213555 0.2346574881910753
675000000.0 -0.9011098480052334 0.26284191960863157
750000000.0 -0.8923795922308067 0.2906358369554585
825000000.0 -0.8828316904394117 0.3180036094003846
900000000.0 -0.8724942875939382 0.34491181917374786
975000000.0 -0.8613972127828516 0.3713293742046151
1050000000.0 -0.8495717527513239 0.39722759582754125
1125000000.0 -0.83705042283274 0.4225802816609248
1200000000.0 -0.8238667382290039 0.447363744159454
1275000000.0 -0.8100549884101016 0.47155682570830504
1350000000.0 -0.7956500171806334 0.49514089144989915
1425000000.0 -0.78068701070246 0.5180998013102419
1500000000.0 -0.7652012954774716 0.5404198629181073
1575000000.0 -0.7492281479920407 0.5620897672852784
1650000000.0 -0.7328026174137755 0.583100509240032
1725000000.0 -0.7159593624199637 0.6034452946808676
1800000000.0 -0.6987325029329344 0.6231194367460556
1875000000.0 -0.6811554872468211 0.6421202429809478
1950000000.0 -0.6632609747581495 0.6604468955337731
2025000000.0 -0.6450807342634193 0.6781003263270843
2100000000.0 -0.6266455575634646 0.6950830890414481
2175000000.0 -0.6079851879187765 0.7113992296159094
2250000000.0 -0.5891282627332242 0.7270541568215247
2325000000.0 -0.5701022697057699 0.7420545143048609
2400000000.0 -0.5509335155802872 0.7564080553325054
2475000000.0 -0.5316471065412193 0.7701235212994764
2550000000.0 -0.5122669392458046 0.7832105248976438
2625000000.0 -0.49281570144996173 0.7956794386779977
2700000000.0 -0.47331488117222315 0.8075412895853991
2775000000.0 -0.45378478334601385 0.8188076598983574
2850000000.0 -0.4342445529324513 0.8294905948709843
2925000000.0 -0.4147122035012469 0.8396025172505969
3000000000.0 -0.39520465033382535 0.8491561487332696
3075000000.0 -0.37573774715808844 0.8581644383211569
3150000000.0 -0.3563263256862855 0.8666404974597957
3225000000.0 -0.33698423719417153 0.8745975417604674
3300000000.0 -0.31772439544940495 0.8820488390517452
3375000000.0 -0.298558820368287 0.8890076634548587
3450000000.0 -0.2794986818512315 0.8954872551388561
3525000000.0 -0.26055434331756855 0.9015007853828383
3600000000.0 -0.24173540452846332 0.9070613265529872
3675000000.0 -0.22305074335209576 0.9121818265907591
3750000000.0 -0.20450855618717043 0.9168750876046462
3825000000.0 -0.18611639681875083 0.921153748160307
3900000000.0 -0.16788121353406885 0.9250302688719103
3975000000.0 -0.1498093843750242 0.9285169209102542
4050000000.0 -0.13190675044844347 0.9316257770599163
4125000000.0 -0.11417864725476327 0.934368704977529
4200000000.0 -0.09662993403063715 0.936757362325645
4275000000.0 -0.07926502113114353 0.9388031934808085
4350000000.0 -0.062087895502914714 0.9405174275398979
4425000000.0 -0.04510214432085655 0.9419110773749196
4500000000.0 -0.02831097687829885 0.9429949395127968
4575000000.0 -0.011717244833835922 0.9437795946428488
4650000000.0 0.004676539072093031 0.944275408580241
4725000000.0 0.020868183711266534 0.9444925335383672
4800000000.0 0.03685580354916739 0.9444409095866774
4875000000.0 0.05263780378965558 0.9441302661925731
4950000000.0 0.06821286655992712 0.9435701237666277
5025000000.0 0.0835799380161239 0.942769795149283
5100000000.0 0.0987382162549456 0.9417383869943171
5175000000.0 0.11368713992291934 0.9404848010197228
5250000000.0 0.12842637742243912 0.9390177351101076
5325000000.0 0.1429558166218965 0.937345684266428
5400000000.0 0.15727555498605106 0.9354769414087548
5475000000.0 0.17138589005194205 0.9334195980459745
5550000000.0 0.1852873101849324 0.9311815448329022
5625000000.0 0.19898048555872752 0.92877047204034
5700000000.0 0.21246625931225754 0.9261938699672746
5775000000.0 0.22574563884503568 0.9234590293267778
5850000000.0 0.2388197872208587 0.9205730416384066
5925000000.0 0.2516900146574516 0.917542799660111
6000000000.0 0.26435777008679107 0.9143749978919864
6075000000.0 0.2768246327772977 0.9110761331827861
6150000000.0 0.28909230401487956 0.907652505468067
6225000000.0 0.3011625988448951 0.9041102186662783
6300000000.0 0.3130374378814724 0.9004551817561771
6375000000.0 0.32471883919430755 0.8966931100557112
6450000000.0 0.3362089102860971 0.8928295267190997
6525000000.0 0.3475098401761085 0.888869764465316
6600000000.0 0.35862389160717506 0.8848189675476273
6675000000.0 0.36955339339460963 0.8806820939703371
6750000000.0 0.38030073293621486 0.8764639179554542
6825000000.0 0.39086834890278305 0.872169032658752
6900000000.0 0.40125872412829616 0.8678018531315965
6975000000.0 0.4114743787184434 0.863366619522031
7050000000.0 0.42151786339520353 0.8588674005060036
7125000000.0 0.4313917530940567 0.8543080969372239
7200000000.0 0.44109864082900313 0.8496924457020392
7275000000.0 0.4506411318389794 0.8450240237638835
7350000000.0 0.4600218380275516 0.8403062523802888
7425000000.0 0.4692433727058959 0.8355424014741707
7500000000.0 0.47830834564720515 0.8307355941400687
7575000000.0 0.4872193584586809 0.8258888112652671
7650000000.0 0.4959790002753124 0.821004896245207
7725000000.0 0.5045898437776858 0.8160865597723118
7800000000.0 0.5130544415341454 0.8111363846773137
7875000000.0 0.5213753226657561 0.8061568308022835
7950000000.0 0.5295549898307164 0.8011502398849439
8025000000.0 0.5375959165231603 0.7961188404343358
8100000000.0 0.5455005446796729 0.7910647525785971
8175000000.0 0.5532712825853301 0.7859899928664256
8250000000.0 0.5609105030696994 0.7808964790047535
8325000000.0 0.5684205419819672 0.7757860345162065
8400000000.0 0.5758036969332326 0.7706603933010769
8475000000.0 0.5830622262930137 0.7655212040897751
8550000000.0 0.5901983484261544 0.7603700347730168
8625000000.0 0.5972142411556103 0.7552083765983376
8700000000.0 0.6041120414360007 0.7500376482229216
8775000000.0 0.6108938452223991 0.7448591996141114
8850000000.0 0.6175617075185026 0.7396743157903847
8925000000.0 0.6241176425881877 0.7344842203969756
9000000000.0 0.6305636243143847 0.7292900791117
9075000000.0 0.6369015866893153 0.7240930028778941
9150000000.0 0.6431334244203176 0.7188940509626912
9225000000.0 0.6492609936358135 0.7136942338401135
9300000000.0 0.6552861126763705 0.7084945158996679
9375000000.0 0.6612105629563325 0.7032958179822505
9450000000.0 0.6670360898820784 0.6980990197462466
9525000000.0 0.6727644038136461 0.6929049618676684
9600000000.0 0.6783971810571964 0.6877144480790833
9675000000.0 0.6839360648765791 0.6825282470528814
9750000000.0 0.6893826665131181 0.677347094135133
9825000000.0 0.6947385662035996 0.672171692936929
9900000000.0 0.7000053141873542 0.6670027167905869
9975000000.0 0.7051844316942617 0.661840810078557
10050000000.0 0.7102774119064155 0.656686589443183
10125000000.0 0.7152857208871299 0.6515406448857186
10200000000.0 0.7202107984718906 0.6464035407631505
10275000000.0 0.7250540591167446 0.6412758166914487
10350000000.0 0.7298168927005066 0.6361579883638517
10425000000.0 0.7345006652780115 0.6310505482927043
10500000000.0 0.7391067197824327 0.6259539664832084
10575000000.0 0.7436363766754656 0.6208686910472208
10650000000.0 0.7480909345448848 0.6157951487649569
10725000000.0 0.7524716706496474 0.610733745602117
10800000000.0 0.7567798414133297 0.6056848671895843
10875000000.0 0.7610166828672302 0.6006488792724186
10950000000.0 0.7651834110449789 0.5956261281344257
11025000000.0 0.7692812223309167 0.5906169410041059
11100000000.0 0.7733112937648953 0.5856216264472943
11175000000.0 0.7772747833064636 0.5806404747513016
11250000000.0 0.7811728300616667 0.5756737583048429
11325000000.0 0.7850065544758922 0.5707217319775391
11400000000.0 0.7887770584963468 0.5657846335022507
11475000000.0 0.7924854257078455 0.5608626838630176
11550000000.0 0.7961327214456526 0.5559560876908682
11625000000.0 0.7997199928891091 0.551065033669306
11700000000.0 0.8032482691397523 0.5461896949508117
11775000000.0 0.80671856128755 0.5413302295852803
11850000000.0 0.8101318624687677 0.5364867809608963
11925000000.0 0.8134891479188283 0.5316594782575828
12000000000.0 0.8167913750233717 0.5268484369127955
12075000000.0 0.8200394833705061 0.5220537590991355
12150000000.0 0.8232343948070352 0.51727553421295
12225000000.0 0.8263770135012057 0.5125138393728454
12300000000.0 0.8294682260142828 0.507768739926816
12375000000.0 0.8325089013829764 0.503040289966499
12450000000.0 0.8354998912145092 0.4983285328469152
12525000000.0 0.8384420297958189 0.49363350170992715
12600000000.0 0.8413361342181352 0.48895522000955166
12675000000.0 0.844183004517897 0.4842937020372078
12750000000.0 0.846983423834711 0.47964895344493425
12825000000.0 0.8497381585868016 0.4750209717646153
12900000000.0 0.852447958664153 0.47040974692125637
12975000000.0 0.8551135576393045 0.46581526173841353
13050000000.0 0.8577356729955498 0.4612374924339149
13125000000.0 0.8603150063720673 0.45667640910412394
13200000000.0 0.8628522438253357 0.4521319761950739
13275000000.0 0.8653480561059962 0.44760415295892675
13350000000.0 0.8678030989501843 0.4430928938943421
13425000000.0 0.8702180133842029 0.4385981491694753
13500000000.0 0.8725934260413001 0.4341198650264759
13575000000.0 0.8749299494892061 0.4296579841665194
13650000000.0 0.8772281825670208 0.4252124461145571
13725000000.0 0.879488710729964 0.42078318756313804
13800000000.0 0.8817121064004727 0.41637014269482375
13875000000.0 0.8838989293241021 0.41197324348287556
13950000000.0 0.886049726928682 0.4075924199700545
14025000000.0 0.8881650346851908 0.4032276005255318
14100000000.0 0.8902453764688384 0.398878712080064
14175000000.0 0.8922912649188877 0.3945456803397074
14250000000.0 0.8943032017957998 0.3902284299785132
14325000000.0 0.8962816783343586 0.385926884810734
14400000000.0 0.8982271755914996 0.3816409679432133
14475000000.0 0.9001401647876592 0.3773706019087115
14550000000.0 0.9020211076405571 0.37311570878102596
14625000000.0 0.9038704566904117 0.36887621027283013
14700000000.0 0.9056886556157112 0.36465202781723066
14775000000.0 0.9074761395387526 0.3604430826340843
14850000000.0 0.9092333353202783 0.3562492957821675
14925000000.0 0.910960661842657 0.35207058819831094
15000000000.0 0.9126585302811407 0.34790688072463277
15075000000.0 0.9143273443628701 0.3437580941250102
15150000000.0 0.9159675006133684 0.3396241490919189
15225000000.0 0.9175793885903903 0.33550496624475845
15300000000.0 0.9191633911050738 0.33140046612076374
15375000000.0 0.9207198844304334 0.32731056915955486
15450000000.0 0.9222492384973151 0.323235195682355
15525000000.0 0.9237518170780104 0.31917426586685227
15600000000.0 0.9252279779577943 0.3151276997186316
15675000000.0 0.9266780730947133 0.3110954170400463
15750000000.0 0.928102448767991 0.3070773373973488
15825000000.0 0.929501445715493 0.303073380086825
15900000000.0 0.9308753992606895 0.29908346410063263
15975000000.0 0.932224639429627 0.2951075080929644
16050000000.0 0.9335494910584048 0.29114543034710494
16125000000.0 0.9348502738916993 0.28719714874388913
16200000000.0 0.9361273026728721 0.2832625807320026
16275000000.0 0.937380887226206 0.2793416433005143
16350000000.0 0.9386113325318133 0.2754342529539759
16425000000.0 0.939818938793758 0.2715403256903701
16500000000.0 0.9410040015019167 0.26765977698213833
16575000000.0 0.9421668114881001 0.26379252176048484
16650000000.0 0.9433076549769259 0.2599384744031021
16725000000.0 0.9444268136319414 0.25609754872543683
16800000000.0 0.9455245645974373 0.2522696579755753
16875000000.0 0.9466011805364211 0.248454714832807
16950000000.0 0.9476569296651494 0.24465263140989554
17025000000.0 0.9486920757846325 0.2408633192590682
17100000000.0 0.9497068783094892 0.23708668938171823
17175000000.0 0.9507015922945167 0.2333226522418011
17250000000.0 0.9516764684593118 0.2295711177828924
17325000000.0 0.9526317532112777 0.2258319954488666
17400000000.0 0.9535676886673304 0.22210519420815295
17475000000.0 0.9544845126745991 0.21839062258151437
17550000000.0 0.9553824588304141 0.21468818867329134
17625000000.0 0.9562617565018655 0.21099780020605352
17700000000.0 0.9571226308452077 0.2073193645585904
17775000000.0 0.9579653028253767 0.20365278880717544
17850000000.0 0.9587899892358966 0.19999797977003023
17925000000.0 0.9595969027194355 0.1963548440549064
18000000000.0 0.9603862517892848 0.1927232881097033
18075000000.0 0.9611582408520292 0.1891032182760221
18150000000.0 0.9619130702316786 0.18549454084555284
18225000000.0 0.9626509361955377 0.18189716211917398
18300000000.0 0.9633720309820875 0.17831098846863258
18375000000.0 0.9640765428311592 0.1747359264006527
18450000000.0 0.9647646560166775 0.17117188262330132
18525000000.0 0.9654365508822488 0.1676187641144206
18600000000.0 0.9660924038798763 0.1640764781919113
18675000000.0 0.9667323876120625 0.1605449325856253
18750000000.0 0.9673566708775709 0.1570240355106001
18825000000.0 0.9679654187210939 0.1535136957413385
18900000000.0 0.9685587924870634 0.15001382268680846
18975000000.0 0.9691369498778337 0.1465243264658057
19050000000.0 0.9697000450164227 0.1430451179822995
19125000000.0 0.9702482285139974 0.13957610900033918
19200000000.0 0.9707816475422436 0.13611721221809
19275000000.0 0.9713004459107263 0.13266834134051328
19350000000.0 0.9718047641493238 0.12922941115021505
19425000000.0 0.9722947395957572 0.12580033757593043
19500000000.0 0.9727705064882077 0.12238103775811832
19575000000.0 0.9732321960629526 0.11897143011111176
19650000000.0 0.9736799366569102 0.11557143438126591
19725000000.0 0.9741138538149128 0.11218097170052926
19800000000.0 0.9745340704014849 0.1087999646348811
19875000000.0 0.9749407067168306 0.10542833722706026
19950000000.0 0.9753338806166818 0.10206601503304405
20025000000.0 0.975713707635585 0.09871292515173534
20100000000.0 0.9760803011131575 0.09536899624735429
20175000000.0 0.9764337723227667 0.0920341585640566
20250000000.0 0.9767742306020297 0.0887083439323352
20325000000.0 0.9771017834844808 0.08539148576682128
20400000000.0 0.977416536831681 0.08208351905513794
20475000000.0 0.9777185949650122 0.07878438033753477
20550000000.0 0.9780080607963342 0.07549400767708801
20625000000.0 0.9782850359566488 0.07221234062033198
20700000000.0 0.9785496209218854 0.06893932014826286
20775000000.0 0.9788019151348791 0.0656748886177481
20850000000.0 0.9790420171226093 0.06241898969345635
20925000000.0 0.9792700246077458 0.05917156827052883
21000000000.0 0.9794860346135468 0.055932570388299886
21075000000.0 0.9796901435611675 0.05270194313548765
21150000000.0 0.9798824473584549 0.04947963454737133
21225000000.0 0.9800630414793255 0.04626559349557305
21300000000.0 0.9802320210328792 0.0430597695711777
21375000000.0 0.9803894808214433 0.03986211296200823
21450000000.0 0.9805355153868038 0.036672574324983984
21525000000.0 0.980670219043972 0.03349110465458131
21600000000.0 0.9807936859018966 0.030317655148498327
21675000000.0 0.9809060098706585 0.027152177071714703
21750000000.0 0.9810072846547648 0.023994621620203594
21825000000.0 0.9810976037323023 0.020844939785617703
21900000000.0 0.9811770603198219 0.017703082222327332
21975000000.0 0.9812457473229652 0.014568999118218469
22050000000.0 0.9813037572729895 0.011442640070704758
22125000000.0 0.9813511822494979 0.008323953969389604
22200000000.0 0.9813881137898189 0.005212888886849737
22275000000.0 0.9814146427856609 0.00210939197895839
22350000000.0 0.9814308593677904 -0.0009865906038486233
22425000000.0 0.9814368527796751 -0.004075113793009147
22500000000.0 0.9814327112411523 -0.007156233664713668
22575000000.0 0.9814185218033553 -0.01023000748801318
22650000000.0 0.9813943701962663 -0.013296493757087736
22725000000.0 0.9813603406703886 -0.016355752206694565
22800000000.0 0.9813165158341797 -0.01940784380996166
22875000000.0 0.9812629764889665 -0.022452830757863956
22950000000.0 0.9811998014632017 -0.025490776419836932
23025000000.0 0.9811270674479582 -0.028521745285223277
23100000000.0 0.981044848835679 -0.03154580288537619
23175000000.0 0.9809532175641849 -0.03456301569649994
23250000000.0 0.980852242968033 -0.03757345102346888
23325000000.0 0.9807419916392816 -0.04057717686511409
23400000000.0 0.9806225272997074 -0.04357426176167712
23475000000.0 0.9804939106865155 -0.04656477462533111
23550000000.0 0.9803561994534694 -0.04954878455493389
23625000000.0 0.980209448089334 -0.0525263606363417
23700000000.0 0.9800537078553687 -0.055497571729868536
23775000000.0 0.9798890267435276 -0.05846248624666221
23850000000.0 0.9797154494568032 -0.06142117191594994
23925000000.0 0.979533017413049 -0.06437369554532497
24000000000.0 0.9793417687733398 -0.06732012277636004
24075000000.0 0.9791417384957766 -0.07026051783803512
24150000000.0 0.9789329584153644 -0.0731949433005532
24225000000.0 0.9787154573503435 -0.07612345983224776
24300000000.0 0.9784892612351079 -0.07904612596236348
24375000000.0 0.9782543932795379 -0.08196299785253777
24450000000.0 0.9780108741542877 -0.08487412907986477
24525000000.0 0.9777587222012871 -0.08777957043438447
24600000000.0 0.9774979536683873 -0.090679369733857
24675000000.0 0.977228582966789 -0.0935735716585788
24750000000.0 0.9769506229495817 -0.09646221760892958
24825000000.0 0.976664085209427 -0.09934534558820941
24900000000.0 0.9763689803931141 -0.10222299011315816
24975000000.0 0.9760653185304373 -0.10509518215436979
25050000000.0 0.9757531093745829 -0.10796194910858938
25125000000.0 0.9754323627509481 -0.11082331480462308
25200000000.0 0.9751030889110939 -0.11367929954431666
25275000000.0 0.9747652988883203 -0.1165299201797355
25350000000.0 0.9744190048511746 -0.11937519022734487
25425000000.0 0.9740642204510604 -0.12221512001963956
25500000000.0 0.9737009611599873 -0.1250497168942538
25575000000.0 0.9733292445944356 -0.1278789854202198
25650000000.0 0.9729490908212713 -0.13070292766057903
25725000000.0 0.9725605226416362 -0.1335215434701554
25800000000.0 0.9721635658488034 -0.13633483082683417
25875000000.0 0.971758249456077 -0.1391427861942434
25950000000.0 0.9713446058909494 -0.1419454049133187
26025000000.0 0.9709226711519294 -0.1447426816197502
26100000000.0 0.9704924849246923 -0.14753461068391552
26175000000.0 0.9700540906544827 -0.15032118666947372
26250000000.0 0.9696075355720652 -0.15310240480639767
26325000000.0 0.9691528706708624 -0.15587826147389142
26400000000.0 0.968690150633395 -0.15864875468824224
26475000000.0 0.9682194337055913 -0.16141388459045083
26550000000.0 0.9677407815180343 -0.16417365392814617
26625000000.0 0.9672542588538255 -0.166928068526149
26700000000.0 0.9667599333632364 -0.1696771377398953
26775000000.0 0.9662578752260484 -0.1724208748857973
26850000000.0 0.9657481567629859 -0.17515929764267552
26925000000.0 0.9652308519984169 -0.17789242841834613
27000000000.0 0.9647060361770665 -0.18062029467564533
27075000000.0 0.9641737852381823 -0.18334292921229045
27150000000.0 0.9636341752512534 -0.18606037038925569
27225000000.0 0.9630872818179663 -0.18877266230271228
27300000000.0 0.9625331794457865 -0.1914798548948966
27375000000.0 0.9619719408990093 -0.1941820039998498
27450000000.0 0.961403636533798 -0.19687917132043456
27525000000.0 0.9608283336241116 -0.19957142433369787
27600000000.0 0.9602460956859108 -0.20225883612232043
27675000000.0 0.9596569818074226 -0.2049414851305966
27750000000.0 0.9590610459934533 -0.20761945484420702
27825000000.0 0.958458336532097 -0.2102928333938894
27900000000.0 0.9578488953921866 -0.2129617130839193
27975000000.0 0.9572327576599965 -0.21562618984728502
28050000000.0 0.9566099510235869 -0.21828636263029066
28125000000.0 0.9559804953130787 -0.2209423327103317
28200000000.0 0.9553444021049026 -0.2235942029514038
28275000000.0 0.9547016743977054 -0.22624207700295285
28350000000.0 0.9540523063672178 -0.22888605844844237
28425000000.0 0.9533962832067562 -0.23152624991100917
28500000000.0 0.9527335810594902 -0.23416275212431878
