#   Hz   S  RI   R   50
!
0.0 -0.938742320920215 0.0
75000000.0 -0.9382578985675459 0.02993520171504239
150000000.0 -0.9368062069951105 0.05982342045202173
225000000.0 -0.9343919585405939 0.08961794350022066
300000000.0 -0.9310229602766199 0.1192725952461893
375000000.0 -0.9267100446086938 0.1487419972034151
450000000.0 -0.9214669737556906 0.17798181802565616
525000000.0 -0.9153103197033747 0.20694901050197714
600000000.0 -0.9082593216026287 0.23560203280613504
675000000.0 -0.9003357229142168 0.2639010515993622
750000000.0 -0.8915635908738225 0.2918081249537096
825000000.0 -0.8819691210595839 0.31928736346179326
900000000.0 -0.8715804299865243 0.34630506831652635
975000000.0 -0.8604273387274418 0.3728298455694342
1050000000.0 -0.8485411505694206 0.3988326961972923
1125000000.0 -0.835954425662522 0.4242870820134775
1200000000.0 -0.8227007555075546 0.4491689678433022
1275000000.0 -0.8088145399694537 0.4734568407336101
1350000000.0 -0.7943307692993785 0.49713170727966405
1425000000.0 -0.779284813410213 0.520177070421989
1500000000.0 -0.7637122203853366 0.5425788872892777
1575000000.0 -0.7476485259178764 0.5643255098391673
1650000000.0 -0.7311290750852902 0.5854076101766987
1725000000.0 -0.7141888575699245 0.6058180925119268
1800000000.0 -0.6968623571469557 0.6255519937559775
1875000000.0 -0.6791834159830766 0.6446063747523177
1950000000.0 -0.6611851140274206 0.6629802041013022
2025000000.0 -0.6428996635346935 0.6806742364658129
2100000000.0 -0.624358318542331 0.6976908871490493
2175000000.0 -0.6055912989307844 0.7140341046171973
2250000000.0 -0.5866277285299816 0.7297092425048453
2325000000.0 -0.5674955865959057 0.744722932494326
2400000000.0 -0.548221671868739 0.7590829593060721
2475000000.0 -0.528831578337202 0.7727981388795723
2550000000.0 -0.5093496817710504 0.7858782006671883
2625000000.0 -0.48979913604347397 0.7983336748089053
2700000000.0 -0.47020187824518767 0.810175784807697
2775000000.0 -0.45057864159017075 0.8214163461845327
2850000000.0 -0.4309489751269275 0.832067671460825
2925000000.0 -0.41133126929651104 0.8421424816954027
3000000000.0 -0.391742786417117 0.8516538246936602
3075000000.0 -0.37219969522264623 0.8606149999088721
3150000000.0 -0.3527171086372309 0.8690394899697591
3225000000.0 -0.333309124027467 0.8769408986942521
3300000000.0 -0.31398886523730785 0.884332895386587
3375000000.0 -0.2947685257757564 0.8912291651629373
3450000000.0 -0.2756594125933402 0.8976433650090749
3525000000.0 -0.25667198994870566 0.9035890852413853
3600000000.0 -0.2378159229306704 0.9090798160191206
3675000000.0 -0.21910012026274667 0.9141289185402839
3750000000.0 -0.20053277607610578 0.9187496005451627
3825000000.0 -0.18212141039247107 0.9229548957494121
3900000000.0 -0.16387290811023952 0.9267576468320248
3975000000.0 -0.14579355633499075 0.9301704916116135
4050000000.0 -0.12788907993920434 0.9332058520565352
4125000000.0 -0.11016467527542065 0.9358759257897639
4200000000.0 -0.09262504200230211 0.9381926797674374
4275000000.0 -0.07527441301399167 0.9401678458300359
4350000000.0 -0.058116582490088164 0.9418129178466967
4425000000.0 -0.041154932106468756 0.9431391501956813
4500000000.0 -0.024392455466397917 0.9441575573470662
4575000000.0 -0.007831780826989354 0.9448789143369252
4650000000.0 0.008524807791607528 0.9453137579452597
4725000000.0 0.024675351017628588 0.9454723884123996
4800000000.0 0.04061819595658841 0.9453648715502779
4875000000.0 0.05635197933059508 0.9450010411257344
4950000000.0 0.07187561181928658 0.9443905014124823
5025000000.0 0.08718826349391531 0.9435426298266825
5100000000.0 0.10228935023807606 0.9424665795778473
5175000000.0 0.11717852105203963 0.9411712822822131
5250000000.0 0.13185564614231546 0.9396654504995484
5325000000.0 0.14632080570368172 0.9379575801667143
5400000000.0 0.16057427930734053 0.9360559529121156
5475000000.0 0.17461653581575795 0.9339686382445469
5550000000.0 0.18844822375207626 0.9317034956178424
5625000000.0 0.2020701620594621 0.9292681763793483
5700000000.0 0.21548333119330368 0.9266701256155032
5775000000.0 0.22868886449661172 0.9239165839119501
5850000000.0 0.24168803981624043 0.9210145890486147
5925000000.0 0.25448227132450124 0.917970977652233
6000000000.0 0.26707310151732155 0.9147923868299616
6075000000.0 0.27946219336626166 0.9114852558080826
6150000000.0 0.2916513226073701 0.9080558275995132
6225000000.0 0.30364237015503226 0.9045101507229649
6300000000.0 0.315437314633576 0.9008540809952373
6375000000.0 0.32703822502352503 0.8970932834163872
6450000000.0 0.3384472534229149 0.8932332341654858
6525000000.0 0.34966662792714887 0.8892792227223857
6600000000.0 0.36069864563337095 0.8852363541285097
6675000000.0 0.3715456657773881 0.8811095513971563
6750000000.0 0.38221010301275066 0.8769035580812609
6825000000.0 0.3926944208427655 0.8726229410040216
6900000000.0 0.4030011252169665 0.868272093155327
6975000000.0 0.4131327583040021 0.8638552367545159
7050000000.0 0.42309189245297335 0.8593764264777677
7125000000.0 0.4328811243550691 0.8548395528462605
7200000000.0 0.44250306941691603 0.85024834576932
7275000000.0 0.45196035635638304 0.8456063782349648
7350000000.0 0.4612556220307765 0.8409170701386722
7425000000.0 0.4703915065063439 0.8361836922397855
7500000000.0 0.47937064837693083 0.8314093702337529
7575000000.0 0.4881956803384047 0.8265970889273815
7650000000.0 0.4968692250242158 0.8217496965034351
7725000000.0 0.5053938911061332 0.8168699088602684
7800000000.0 0.5137722696628534 0.811960314011696
7875000000.0 0.5220069308178479 0.8070233765320013
7950000000.0 0.530100420646441 0.8020614420308261
8025000000.0 0.5380552583508377 0.7970767416426963
8100000000.0 0.545873933700497 0.7920713965160645
8175000000.0 0.5535589047340543 0.7870474222870444
8250000000.0 0.561112595717795 0.7820067335233697
8325000000.0 0.5685373953545866 0.7769511481246363
8400000000.0 0.5758356552361498 0.7718823916654701
8475000000.0 0.5830096885305792 0.7668021016689429
8550000000.0 0.5900617688961675 0.7617118317983205
8625000000.0 0.5969941296118068 0.7566130559560597
8700000000.0 0.6038089629135396 0.7515071722798323
8775000000.0 0.6105084195262523 0.7463955070263008
8850000000.0 0.6170946083789854 0.7412793183343114
8925000000.0 0.6235695964919432 0.736159799860178
9000000000.0 0.6299354090229563 0.7310380842787085
9075000000.0 0.636194029460955 0.7259152466446654
9150000000.0 0.6423473999538561 0.7207923076103313
9225000000.0 0.6483974217582474 0.7156702364958812
9300000000.0 0.6543459557982948 0.7105499542102222
9375000000.0 0.6601948233214261 0.7054323360209334
9450000000.0 0.6659458066385547 0.7003182141728669
9525000000.0 0.6716006499368892 0.6952083803558526
9600000000.0 0.6771610601537162 0.6901035880228056
9675000000.0 0.6826287078999712 0.6850045545603293
9750000000.0 0.6880052284228632 0.6799119633146496
9825000000.0 0.6932922225973532 0.674826465476413
9900000000.0 0.6984912579368351 0.6697486818284991
9975000000.0 0.7036038696139868 0.664679204361573
10050000000.0 0.7086315614833658 0.6596185977625996
10125000000.0 0.713575807098012 0.654567400781983
10200000000.0 0.718438050712958 0.6495261274853595
10275000000.0 0.7232197082692599 0.6444952683963758
10350000000.0 0.7279221683528423 0.6394752915370423
10425000000.0 0.7325467931231333 0.6344666433723936
10500000000.0 0.7370949192071584 0.6294697496663446
10575000000.0 0.7415678585554256 0.6244850162556473
10650000000.0 0.7459668992565968 0.6195128297488856
10725000000.0 0.7502933063085553 0.6145535581573625
10800000000.0 0.7545483223441125 0.6096075514646627
10875000000.0 0.7587331683101469 0.6046751421414922
10950000000.0 0.7628490440995408 0.599756645612227
11025000000.0 0.7668971291357728 0.5948523606793729
11100000000.0 0.770878582910511 0.5899625699118659
11175000000.0 0.7747945454749829 0.5850875400028643
11250000000.0 0.7786461378863025 0.5802275221023606
11325000000.0 0.7824344626102793 0.5753827521296089
11400000000.0 0.7861606038825737 0.5705534510700137
11475000000.0 0.7898256280303164 0.5657398252607555
11550000000.0 0.7934305837565567 0.560942066669062
11625000000.0 0.796976502390113 0.5561603531666531
11700000000.0 0.8004643981035366 0.5513948488035121
11775000000.0 0.8038952681020416 0.5466457040837529
11850000000.0 0.8072700927863299 0.5419130562459873
11925000000.0 0.8105898358923032 0.5371970295502294
12000000000.0 0.8138554446106676 0.5324977355730174
12075000000.0 0.8170678496894371 0.5278152735120949
12150000000.0 0.8202279655223005 0.5231497305016625
12225000000.0 0.8233366902257594 0.5185011819388989
12300000000.0 0.8263949057078669 0.5138696918221589
12375000000.0 0.8294034777312773 0.5092553131009712
12450000000.0 0.8323632559732117 0.5046580880377133
12525000000.0 0.8352750740847903 0.5000780485805945
12600000000.0 0.8381397497520389 0.49551521674736504
12675000000.0 0.8409580847607078 0.49096960501897946
12750000000.0 0.8437308650668565 0.48644121674226026
12825000000.0 0.8464588608749948 0.4819300465404668
12900000000.0 0.8491428267253587 0.4774360807305351
12975000000.0 0.8517835015917221 0.4729592977456493
13050000000.0 0.8543816089909416 0.4684996685617157
13125000000.0 0.8569378571052386 0.46405715712624696
13200000000.0 0.8594529389180273 0.4596317207881035
13275000000.0 0.8619275323639075 0.45522331072652317
13350000000.0 0.86436230049325 0.45083187237784744
13425000000.0 0.8667578916516205 0.44645734585836244
13500000000.0 0.8691149396741167 0.4420996663816906
13575000000.0 0.8714340640945201 0.43775876466920993
13650000000.0 0.8737158703690081 0.4334345673520181
13725000000.0 0.8759609501140255 0.42912699736303317
13800000000.0 0.8781698813577676 0.42483597431788245
13875000000.0 0.8803432288046107 0.42056141488332355
13950000000.0 0.8824815441116991 0.4163032331320362
14025000000.0 0.8845853661768033 0.41206134088271207
14100000000.0 0.8866552214364649 0.40783564802449007
14175000000.0 0.8886916241733708 0.4036260628248843
14250000000.0 0.8906950768318241 0.3994324922204787
14325000000.0 0.892666070340138 0.3952548420897689
14400000000.0 0.8946050844387223 0.39109301750766273
14475000000.0 0.8965125880126156 0.3869469229812614
14550000000.0 0.8983890394271846 0.3828164626666681
14625000000.0 0.9002348868657206 0.37870154056669036
14700000000.0 0.9020505686676508 0.3746020607094107
14775000000.0 0.9038365136661092 0.3705179273077187
14850000000.0 0.9055931415236292 0.3664490448999999
14925000000.0 0.9073208630647496 0.3623953184722843
15000000000.0 0.9090200806043739 0.35835665356225277
15075000000.0 0.9106911882707669 0.35433295634558376
15150000000.0 0.9123345723221208 0.3503241337052232
15225000000.0 0.9139506114556959 0.3463300932842179
15300000000.0 0.9155396771085982 0.3423507435228421
15375000000.0 0.9171021337493225 0.3383859936807985
15450000000.0 0.9186383391592724 0.33443575384533225
15525000000.0 0.9201486447035395 0.3304999349261538
15600000000.0 0.9216333955902961 0.3265784486380959
15675000000.0 0.9230929311182474 0.3226712074724695
15750000000.0 0.9245275849116585 0.3187781246581176
15825000000.0 0.9259376851425566 0.3148991141131698
15900000000.0 0.9273235547397869 0.31103409038852853
15975000000.0 0.9286855115846816 0.3071829686041219
16050000000.0 0.930023868693176 0.30334566437894966
16125000000.0 0.9313389343842834 0.29952209375596145
16200000000.0 0.932631012434916 0.2957121731227797
16275000000.0 0.9339004022211039 0.2919158191292755
16350000000.0 0.9351473988457455 0.28813294860298294
16425000000.0 0.936372293253072 0.2843634784633136
16500000000.0 0.9375753723300894 0.28060732563550206
16575000000.0 0.9387569189953063 0.27686440696519116
16650000000.0 0.9399172122751288 0.2731346391345188
16725000000.0 0.941056527368335 0.2694179385805372
16800000000.0 0.9421751356991219 0.26571422141676004
16875000000.0 0.9432733049592349 0.262023403358573
16950000000.0 0.9443512991397539 0.2583453996532174
17025000000.0 0.9454093785531447 0.2546801250149956
17100000000.0 0.9464477998462177 0.2510274935663036
17175000000.0 0.9474668160046745 0.24738741878504045
17250000000.0 0.9484666763499511 0.24375981345889813
17325000000.0 0.9494476265290933 0.24014458964697333
17400000000.0 0.950409908498427 0.23654165864909285
17475000000.0 0.9513537605017977 0.23295093098318667
17550000000.0 0.9522794170441786 0.2293723163709812
17625000000.0 0.9531871088614576 0.2258057237322328
17700000000.0 0.954077062887218 0.22225106118765595
17775000000.0 0.9549495022173378 0.2187082360706493
17850000000.0 0.9558046460732362 0.21517715494784817
17925000000.0 0.9566427097645869 0.21165772364849098
18000000000.0 0.9574639046523212 0.20814984730250627
18075000000.0 0.9582684381127234 0.2046534303871828
18150000000.0 0.959056513503415 0.20116837678221466
18225000000.0 0.9598283301320085 0.1976945898328584
18300000000.0 0.9605840832281773 0.19423197242088103
18375000000.0 0.9613239639198736 0.19078042704291487
18450000000.0 0.962048159214391 0.18733985589578683
18525000000.0 0.9627568519849345 0.1839101609683288
18600000000.0 0.9634502209633187 0.18049124413912698
18675000000.0 0.9641284407393778 0.1770830072796137
18750000000.0 0.9647916817676181 0.17368535236186772
18825000000.0 0.9654401103815934 0.17029818157042978
18900000000.0 0.9660738888164365 0.16692139741741296
18975000000.0 0.9666931752399072 0.16355490286014476
19050000000.0 0.9672981237922683 0.1601986014205419
19125000000.0 0.9678888846352269 0.15685239730539569
19200000000.0 0.968465604010122 0.15351619552672083
19275000000.0 0.9690284243054506 0.15018990202129692
19350000000.0 0.9695774841337698 0.1468734237685259
19425000000.0 0.9701129184179277 0.14356666890571898
19500000000.0 0.9706348584865025 0.14026954683991374
19575000000.0 0.9711434321782519 0.136981968355353
19650000000.0 0.9716387639552976 0.1337038457157314
19725000000.0 0.9721209750246925 0.1304350927603654
19800000000.0 0.9725901834679399 0.12717562499344942
19875000000.0 0.9730465043779615 0.12392535966558546
19950000000.0 0.9734900500029268 0.12068421584683248
20025000000.0 0.9739209298963023 0.11745211449054015
20100000000.0 0.9743392510723864 0.11422897848729442
20175000000.0 0.9747451181665469 0.11101473270836182
20250000000.0 0.9751386335993139 0.10780930403807108
20325000000.0 0.9755198977434077 0.10461262139464794
20400000000.0 0.9758890090927492 0.10142461573909009
20475000000.0 0.9762460644324377 0.09824522007175003
20550000000.0 0.9765911590086458 0.09507436941637852
20625000000.0 0.9769243866973453 0.0919120007914715
20700000000.0 0.9772458401707491 0.08875805316885808
20775000000.0 0.9775556110603398 0.08561246741956337
20850000000.0 0.9778537901153344 0.08247518624708595
20925000000.0 0.9781404673554419 0.07934615410832459
21000000000.0 0.9784157322167673 0.07622531712250774
21075000000.0 0.9786796736897406 0.07311262296857077
21150000000.0 0.9789323804479666 0.07000802077154877
21225000000.0 0.979173940966928 0.06691146097864785
21300000000.0 0.9794044436315229 0.06382289522576541
21375000000.0 0.9796239768314667 0.06074227619534499
21450000000.0 0.9798326290436664 0.05766955746652725
21525000000.0 0.9800304889007286 0.054604693358685556
21600000000.0 0.9802176452448735 0.05154763876949405
21675000000.0 0.9803941871666065 0.0484983490087877
21750000000.0 0.9805602040276034 0.045456779629531534
21825000000.0 0.9807157854673927 0.04242288625729609
21900000000.0 0.9808610213935209 0.03939662441969277
21975000000.0 0.980996001955038 0.036377949377274094
22050000000.0 0.9811208174992495 0.03336681595743806
22125000000.0 0.9812355585118612 0.030363178392907197
22200000000.0 0.9813403155407499 0.027366990166365388
22275000000.0 0.9814351791037752 0.02437820386283001
22350000000.0 0.9815202395811911 0.021396771031336127
22425000000.0 0.9815955870933647 0.018422642057456143
22500000000.0 0.9816613113646766 0.01545576604816934
22575000000.0 0.9817175015746255 0.012496090730494385
22650000000.0 0.981764246197307 0.009543562365259432
22725000000.0 0.9818016328305936 0.006598125677262538
22800000000.0 0.9818297480164643 0.003659723802998033
22875000000.0 0.981848677054087 0.0007282982569682829
22950000000.0 0.9818585038073557 -0.0021962110825034017
23025000000.0 0.9818593105087126 -0.0051138659672158105
23100000000.0 0.9818511775611746 -0.008024729752206942
23175000000.0 0.9818341833405634 -0.010928867347624929
23250000000.0 0.981808404000027 -0.01382634514914183
23325000000.0 0.9817739132789524 -0.016717230946872583
23400000000.0 0.9817307823184479 -0.019601593812989048
23475000000.0 0.9816790794855497 -0.022479503968406565
23550000000.0 0.9816188702083133 -0.025351032629151712
23625000000.0 0.9815502168239306 -0.028216251833234368
23700000000.0 0.9814731784419515 -0.03107523424905293
23775000000.0 0.9813878108246114 -0.03392805296659622
23850000000.0 0.981294166286204 -0.03677478127290516
23925000000.0 0.9811922936132726 -0.03961549241346504
24000000000.0 0.9810822380073065 -0.042450259341398865
24075000000.0 0.9809640410514436 -0.04527915445652346
24150000000.0 0.9808377407024902 -0.04810224933648951
24225000000.0 0.980703371309414 -0.05091961446241607
24300000000.0 0.9805609636591962 -0.05373131894152973
24375000000.0 0.9804105450507373 -0.056537430229491197
24450000000.0 0.9802521393972508 -0.05933801385515368
24525000000.0 0.9800857673572927 -0.06213313315060334
24600000000.0 0.9799114464943487 -0.06492284898938513
24675000000.0 0.9797291914645685 -0.06770721953584222
24750000000.0 0.9795390142319879 -0.07048630000850035
24825000000.0 0.9793409243102478 -0.07326014246042864
24900000000.0 0.9791349290295573 -0.0760287955794167
24975000000.0 0.9789210338273181 -0.07879230451077325
25050000000.0 0.978699242560557 -0.08155071070541112
25125000000.0 0.9784695578380204 -0.08430405179574245
25200000000.0 0.9782319813694792 -0.08705236150177113
25275000000.0 0.9779865143295841 -0.08979566956952895
25350000000.0 0.9777331577332751 -0.09253400174379847
25425000000.0 0.9774719128195875 -0.0952673797768203
25500000000.0 0.9772027814404394 -0.09799582147435672
25575000000.0 0.9769257664507905 -0.1007193407802349
25650000000.0 0.976640872096433 -0.10343794790010552
25725000000.0 0.9763481043954653 -0.10615164946482784
25800000000.0 0.9760474715094858 -0.1088604487335207
25875000000.0 0.9757389841003774 -0.11156434583589918
25950000000.0 0.9754226556685797 -0.1142633380531381
26025000000.0 0.9750985028687246 -0.1169574201360868
26100000000.0 0.9747665457985424 -0.11964658465917263
26175000000.0 0.9744268082570537 -0.12233082240801192
26250000000.0 0.9740793179681629 -0.12501012279818888
26325000000.0 0.9737241067659705 -0.12768447432233054
26400000000.0 0.9733612107383158 -0.13035386502213628
26475000000.0 0.9729906703253263 -0.13301828298160653
26550000000.0 0.9726125303700937 -0.13567771683737684
26625000000.0 0.972226840118896 -0.13833215630162424
26700000000.0 0.9718336531688362 -0.1409815926927232
26775000000.0 0.9714330273611875 -0.14362601946850367
26850000000.0 0.9710250246192041 -0.14626543275668538
26925000000.0 0.9706097107297182 -0.14889983187683978
27000000000.0 0.970187155068336 -0.15152921984805776
27075000000.0 0.9697574302687008 -0.15415360387637606
27150000000.0 0.969320611836844 -0.15677299581589726
27225000000.0 0.9688767777122936 -0.15938741259762834
27300000000.0 0.968426007778261 -0.1619968766199577
27375000000.0 0.9679683833238649 -0.1646014160950186
27450000000.0 0.9675039864620103 -0.16720106534514714
27525000000.0 0.9670328995071804 -0.16979586504408953
27600000000.0 0.9665552043180374 -0.17238586239785314
27675000000.0 0.9660709816103273 -0.1749711112604687
27750000000.0 0.9655803102461792 -0.1775516721805158
27825000000.0 0.9650832665064162 -0.18012761237468014
27900000000.0 0.9645799233529967 -0.1826990056253005
27975000000.0 0.9640703496891674 -0.18526593209949563
28050000000.0 0.963554609625239 -0.18782847808818448
28125000000.0 0.9630327617582977 -0.19038673566411793
28200000000.0 0.9625048584742993 -0.19294080225885096
28275000000.0 0.9619709452812623 -0.19549078015942098
28350000000.0 0.9614310601822504 -0.19803677592643604
28425000000.0 0.960885233096907 -0.2005788997361641
28500000000.0 0.9603334853401289 -0.20311726465016125
